T2F268 006:012.085   SEGGER J-Link V7.94l Log File
T2F268 006:014.535   DLL Compiled: Feb 29 2024 10:21:21
T2F268 006:014.539   Logging started @ 2026-06-25 02:27
T2F268 006:014.543   Process: C:\Keil_v5\UV4\UV4.exe
T2F268 006:014.645 - 6014.547ms
T2F268 006:014.749 JLINK_SetWarnOutHandler(...)
T2F268 006:014.753 - 0.100ms
T2F268 006:014.758 JLINK_OpenEx(...)
T2F268 006:020.292   Firmware: J-Link V13 compiled Jun 24 2025 16:10:00
T2F268 006:021.981   Firmware: J-Link V13 compiled Jun 24 2025 16:10:00
T2F268 006:023.849   Hardware: V13.00
T2F268 006:023.862   S/N: 601000179
T2F268 006:023.868   OEM: SEGGER
T2F268 006:023.873   Feature(s): RDI, FlashBP, FlashDL, JFlash, GDB
T2F268 006:025.965   Bootloader: 2018 Jun 03
T2F268 006:026.597   USB speed mode: High speed (480 MBit/s)
T2F268 006:027.089   TELNET listener socket opened on port 19021
T2F268 006:027.264   WEBSRV WEBSRV_Init(): Starting webserver thread(s)
T2F268 006:028.921   WEBSRV Webserver running on local port 19080
T2F268 006:029.065   Looking for J-Link GUI Server exe at: C:\Keil_v5\ARM\Segger\JLinkGUIServer.exe
T2F268 006:029.200   Looking for J-Link GUI Server exe at: C:\Program Files\SEGGER\JLink_V794l\JLinkGUIServer.exe
T2F268 006:029.298   Forking J-Link GUI Server: C:\Program Files\SEGGER\JLink_V794l\JLinkGUIServer.exe
T2F268 007:720.593   J-Link GUI Server info: "J-Link GUI server V7.94l "
T2F268 007:735.303 - 1720.419ms returns "O.K."
T2F268 007:735.329 JLINK_GetEmuCaps()
T2F268 007:735.336 - 0.004ms returns 0xB9FF7BBF
T2F268 007:735.341 JLINK_TIF_GetAvailable(...)
T2F268 007:735.714 - 0.372ms
T2F268 007:735.730 JLINK_SetErrorOutHandler(...)
T2F268 007:735.734 - 0.004ms
T2F268 007:736.222 JLINK_ExecCommand("ProjectFile = "D:\work\lsl\1.project\15.259B\2.software\1.pfc_A04\1.pfc_A04_v1.2.0\ProjectTemplate\Project\MDK\JLinkSettings.ini"", ...). 
T2F268 007:762.550   Ref file found at: C:\Keil_v5\ARM\Segger\JLinkDevices.ref
T2F268 007:762.724   REF file references invalid XML file: C:\Program Files\SEGGER\JLink_V794l\JLinkDevices.xml
T2F268 007:766.653   Device "CORTEX-M4" selected.
T2F268 007:767.165 - 30.946ms returns 0x00
T2F268 007:768.545 JLINK_ExecCommand("Device = TAE32G5800", ...). 
T2F268 007:769.961   Device "CORTEX-M4" selected.
T2F268 007:770.390 - 1.829ms returns 0x00
T2F268 007:770.402 JLINK_ExecCommand("DisableConnectionTimeout", ...). 
T2F268 007:770.409 - 0.001ms returns 0x01
T2F268 007:770.413 JLINK_GetHardwareVersion()
T2F268 007:770.420 - 0.003ms returns 130000
T2F268 007:770.424 JLINK_GetDLLVersion()
T2F268 007:770.427 - 0.003ms returns 79412
T2F268 007:770.431 JLINK_GetOEMString(...)
T2F268 007:770.436 JLINK_GetFirmwareString(...)
T2F268 007:770.439 - 0.003ms
T2F268 007:778.483 JLINK_GetDLLVersion()
T2F268 007:778.502 - 0.019ms returns 79412
T2F268 007:778.507 JLINK_GetCompileDateTime()
T2F268 007:778.511 - 0.003ms
T2F268 007:780.321 JLINK_GetFirmwareString(...)
T2F268 007:780.337 - 0.016ms
T2F268 007:781.931 JLINK_GetHardwareVersion()
T2F268 007:781.945 - 0.014ms returns 130000
T2F268 007:783.496 JLINK_GetSN()
T2F268 007:783.511 - 0.014ms returns 601000179
T2F268 007:785.060 JLINK_GetOEMString(...)
T2F268 007:788.240 JLINK_TIF_Select(JLINKARM_TIF_SWD)
T2F268 007:789.503 - 1.262ms returns 0x00
T2F268 007:789.529 JLINK_HasError()
T2F268 007:789.561 JLINK_SetSpeed(1000)
T2F268 007:789.847 - 0.288ms
T2F268 007:789.861 JLINK_GetId()
T2F268 007:793.073   Found SW-DP with ID 0x2BA01477
T2F268 007:798.742   DPIDR: 0x2BA01477
T2F268 007:800.309   CoreSight SoC-400 or earlier
T2F268 007:801.845   Scanning AP map to find all available APs
T2F268 007:804.382   AP[1]: Stopped AP scan as end of AP map has been reached
T2F268 007:809.506   AP[0]: AHB-AP (IDR: 0x24770011)
T2F268 007:812.670   Iterating through AP map to find AHB-AP to use
T2F268 007:817.081   AP[0]: Core found
T2F268 007:820.343   AP[0]: AHB-AP ROM base: 0xE00FF000
T2F268 007:823.903   CPUID register: 0x410FC241. Implementer code: 0x41 (ARM)
T2F268 007:825.710   Found Cortex-M4 r0p1, Little endian.
T2F268 007:826.358   -- Max. mem block: 0x00005B30
T2F268 007:827.079   CPU_ReadMem(4 bytes @ 0xE000EDF0)
T2F268 007:827.687   CPU_WriteMem(4 bytes @ 0xE000EDF0)
T2F268 007:828.317   CPU_ReadMem(4 bytes @ 0xE0002000)
T2F268 007:830.463   FPUnit: 6 code (BP) slots and 2 literal slots
T2F268 007:830.477   CPU_ReadMem(4 bytes @ 0xE000EDFC)
T2F268 007:831.059   CPU_WriteMem(4 bytes @ 0xE000EDFC)
T2F268 007:831.665   CPU_ReadMem(4 bytes @ 0xE0001000)
T2F268 007:832.249   CPU_WriteMem(4 bytes @ 0xE0001000)
T2F268 007:832.865   CPU_ReadMem(4 bytes @ 0xE000ED88)
T2F268 007:833.477   CPU_WriteMem(4 bytes @ 0xE000ED88)
T2F268 007:834.085   CPU_ReadMem(4 bytes @ 0xE000ED88)
T2F268 007:834.670   CPU_WriteMem(4 bytes @ 0xE000ED88)
T2F268 007:839.784   CoreSight components:
T2F268 007:843.157   ROMTbl[0] @ E00FF000
T2F268 007:843.188   CPU_ReadMem(64 bytes @ 0xE00FF000)
T2F268 007:844.645   CPU_ReadMem(32 bytes @ 0xE000EFE0)
T2F268 007:847.284   [0][0]: E000E000 CID B105E00D PID 000BB00C SCS-M7
T2F268 007:847.298   CPU_ReadMem(32 bytes @ 0xE0001FE0)
T2F268 007:849.821   [0][1]: E0001000 CID B105E00D PID 003BB002 DWT
T2F268 007:849.835   CPU_ReadMem(32 bytes @ 0xE0002FE0)
T2F268 007:856.017   [0][2]: E0002000 CID B105E00D PID 002BB003 FPB
T2F268 007:856.044   CPU_ReadMem(32 bytes @ 0xE0000FE0)
T2F268 007:859.270   [0][3]: E0000000 CID B105E00D PID 003BB001 ITM
T2F268 007:859.289   CPU_ReadMem(32 bytes @ 0xE0040FE0)
T2F268 007:862.941   [0][4]: E0040000 CID B105900D PID 000BB9A1 TPIU
T2F268 007:862.966   CPU_ReadMem(32 bytes @ 0xE0041FE0)
T2F268 007:865.808   [0][5]: E0041000 CID B105900D PID 000BB925 ETM
T2F268 007:866.206 - 76.345ms returns 0x2BA01477
T2F268 007:866.224 JLINK_GetDLLVersion()
T2F268 007:866.228 - 0.003ms returns 79412
T2F268 007:866.345 JLINK_CORE_GetFound()
T2F268 007:866.349 - 0.004ms returns 0xE0000FF
T2F268 007:866.353 JLINK_GetDebugInfo(0x100 = JLINKARM_ROM_TABLE_ADDR_INDEX)
T2F268 007:866.357   Value=0xE00FF000
T2F268 007:866.362 - 0.008ms returns 0
T2F268 007:868.085 JLINK_GetDebugInfo(0x100 = JLINKARM_ROM_TABLE_ADDR_INDEX)
T2F268 007:868.096   Value=0xE00FF000
T2F268 007:868.102 - 0.016ms returns 0
T2F268 007:868.107 JLINK_GetDebugInfo(0x101 = JLINKARM_DEBUG_INFO_ETM_ADDR_INDEX)
T2F268 007:868.110   Value=0xE0041000
T2F268 007:868.116 - 0.009ms returns 0
T2F268 007:868.129 JLINK_ReadMemEx(0xE0041FD0, 0x20 Bytes, Flags = 0x02000004)
T2F268 007:868.793   CPU_ReadMem(32 bytes @ 0xE0041FD0)
T2F268 007:869.837   Data:  04 00 00 00 00 00 00 00 00 00 00 00 00 00 00 00 ...
T2F268 007:869.865 - 1.733ms returns 32 (0x20)
T2F268 007:869.889 JLINK_GetDebugInfo(0x102 = JLINKARM_DEBUG_INFO_MTB_ADDR_INDEX)
T2F268 007:869.900   Value=0x00000000
T2F268 007:869.905 - 0.018ms returns 0
T2F268 007:869.909 JLINK_GetDebugInfo(0x103 = JLINKARM_DEBUG_INFO_TPIU_ADDR_INDEX)
T2F268 007:869.913   Value=0xE0040000
T2F268 007:869.917 - 0.008ms returns 0
T2F268 007:869.921 JLINK_GetDebugInfo(0x104 = JLINKARM_DEBUG_INFO_ITM_ADDR_INDEX)
T2F268 007:869.925   Value=0xE0000000
T2F268 007:869.929 - 0.008ms returns 0
T2F268 007:869.934 JLINK_GetDebugInfo(0x105 = JLINKARM_DEBUG_INFO_DWT_ADDR_INDEX)
T2F268 007:869.937   Value=0xE0001000
T2F268 007:869.942 - 0.008ms returns 0
T2F268 007:869.946 JLINK_GetDebugInfo(0x106 = JLINKARM_DEBUG_INFO_FPB_ADDR_INDEX)
T2F268 007:869.949   Value=0xE0002000
T2F268 007:869.953 - 0.008ms returns 0
T2F268 007:869.958 JLINK_GetDebugInfo(0x107 = JLINKARM_DEBUG_INFO_NVIC_ADDR_INDEX)
T2F268 007:869.961   Value=0xE000E000
T2F268 007:869.966 - 0.008ms returns 0
T2F268 007:869.970 JLINK_GetDebugInfo(0x10C = JLINKARM_DEBUG_INFO_DBG_ADDR_INDEX)
T2F268 007:869.973   Value=0xE000EDF0
T2F268 007:869.978 - 0.008ms returns 0
T2F268 007:869.982 JLINK_GetDebugInfo(0x01 = Unknown)
T2F268 007:869.985   Value=0x00000001
T2F268 007:869.990 - 0.008ms returns 0
T2F268 007:869.994 JLINK_ReadMemU32(0xE000ED00, 0x1 Items)
T2F268 007:870.000   CPU_ReadMem(4 bytes @ 0xE000ED00)
T2F268 007:870.585   Data:  41 C2 0F 41
T2F268 007:870.750   Debug reg: CPUID
T2F268 007:870.756 - 0.761ms returns 1 (0x1)
T2F268 007:870.764 JLINK_GetDebugInfo(0x10F = JLINKARM_DEBUG_INFO_HAS_CORTEX_M_SECURITY_EXT_INDEX)
T2F268 007:870.769   Value=0x00000000
T2F268 007:870.773 - 0.009ms returns 0
T2F268 007:870.778 JLINK_HasError()
T2F268 007:870.783 JLINK_SetResetType(JLINKARM_CM3_RESET_TYPE_NORMAL)
T2F268 007:870.787 - 0.004ms returns JLINKARM_CM3_RESET_TYPE_NORMAL
T2F268 007:870.791 JLINK_Reset()
T2F268 007:870.801   CPU is running
T2F268 007:870.807   CPU_WriteMem(4 bytes @ 0xE000EDF0)
T2F268 007:871.436   CPU is running
T2F268 007:871.451   CPU_WriteMem(4 bytes @ 0xE000EDFC)
T2F268 007:873.821   Reset: Halt core after reset via DEMCR.VC_CORERESET.
T2F268 007:876.779   Reset: Reset device via AIRCR.SYSRESETREQ.
T2F268 007:876.803   CPU is running
T2F268 007:876.815   CPU_WriteMem(4 bytes @ 0xE000ED0C)
T2F268 007:931.749   CPU_ReadMem(4 bytes @ 0xE000EDF0)
T2F268 007:932.363   CPU_ReadMem(4 bytes @ 0xE000EDF0)
T2F268 007:939.139   CPU_WriteMem(4 bytes @ 0xE000EDFC)
T2F268 007:945.501   CPU_ReadMem(4 bytes @ 0xE000EDF0)
T2F268 007:952.465   CPU_WriteMem(4 bytes @ 0xE0002000)
T2F268 007:953.106   CPU_ReadMem(4 bytes @ 0xE000EDFC)
T2F268 007:953.681   CPU_ReadMem(4 bytes @ 0xE0001000)
T2F268 007:954.209 - 83.417ms
T2F268 007:954.221 JLINK_Halt()
T2F268 007:954.225 - 0.003ms returns 0x00
T2F268 007:954.321 JLINK_ReadMemU32(0xE000EDF0, 0x1 Items)
T2F268 007:954.331   CPU_ReadMem(4 bytes @ 0xE000EDF0)
T2F268 007:954.908   Data:  03 00 03 00
T2F268 007:954.913   Debug reg: DHCSR
T2F268 007:954.918 - 0.596ms returns 1 (0x1)
T2F268 007:954.923 JLINK_WriteU32_64(0xE000EDF0, 0xA05F0003)
T2F268 007:954.926   Debug reg: DHCSR
T2F268 007:955.234   CPU_WriteMem(4 bytes @ 0xE000EDF0)
T2F268 007:955.843 - 0.919ms returns 0 (0x00000000)
T2F268 007:955.857 JLINK_WriteU32_64(0xE000EDFC, 0x01000000)
T2F268 007:955.862   Debug reg: DEMCR
T2F268 007:955.873   CPU_WriteMem(4 bytes @ 0xE000EDFC)
T2F268 007:956.436 - 0.577ms returns 0 (0x00000000)
T2F268 007:968.825 JLINK_GetHWStatus(...)
T2F268 007:969.209 - 0.815ms returns 0
T2F268 007:977.491 JLINK_GetNumBPUnits(Type = 0xFFFFFF00)
T2F268 007:977.514 - 0.023ms returns 0x06
T2F268 007:977.519 JLINK_GetNumBPUnits(Type = 0xF0)
T2F268 007:977.523 - 0.003ms returns 0x2000
T2F268 007:977.527 JLINK_GetNumWPUnits()
T2F268 007:977.531 - 0.003ms returns 4
T2F268 007:982.643 JLINK_GetSpeed()
T2F268 007:982.659 - 0.016ms returns 1000
T2F268 007:985.910 JLINK_ReadMemU32(0xE000E004, 0x1 Items)
T2F268 007:985.937   CPU_ReadMem(4 bytes @ 0xE000E004)
T2F268 007:986.650   Data:  02 00 00 00
T2F268 007:986.666 - 0.755ms returns 1 (0x1)
T2F268 007:986.681 JLINK_ReadMemU32(0xE000E004, 0x1 Items)
T2F268 007:986.694   CPU_ReadMem(4 bytes @ 0xE000E004)
T2F268 007:987.411   Data:  02 00 00 00
T2F268 007:987.417 - 0.736ms returns 1 (0x1)
T2F268 007:987.421 JLINK_WriteMemEx(0xE0001000, 0x0000001C Bytes, Flags = 0x02000004)
T2F268 007:987.425   Data:  01 00 00 00 00 00 00 00 00 00 00 00 00 00 00 00 ...
T2F268 007:987.435   CPU_WriteMem(28 bytes @ 0xE0001000)
T2F268 007:988.411 - 0.989ms returns 0x1C
T2F268 007:988.421 JLINK_Halt()
T2F268 007:988.425 - 0.004ms returns 0x00
T2F268 007:988.452 JLINK_IsHalted()
T2F268 007:988.469 - 0.017ms returns TRUE
T2F268 007:993.621 JLINK_WriteMem(0x20000000, 0x508 Bytes, ...)
T2F268 007:993.633   Data:  00 BE 0A E0 0D 78 2D 06 68 40 08 24 40 00 00 D3 ...
T2F268 007:994.004   CPU_WriteMem(1288 bytes @ 0x20000000)
T2F268 008:010.113 - 16.490ms returns 0x508
T2F268 008:010.199 JLINK_HasError()
T2F268 008:010.225 JLINK_WriteReg(R0, 0x08000000)
T2F268 008:010.233 - 0.017ms returns 0
T2F268 008:010.238 JLINK_WriteReg(R1, 0x00B71B00)
T2F268 008:010.242 - 0.003ms returns 0
T2F268 008:010.246 JLINK_WriteReg(R2, 0x00000001)
T2F268 008:010.249 - 0.003ms returns 0
T2F268 008:010.253 JLINK_WriteReg(R3, 0x00000000)
T2F268 008:010.257 - 0.003ms returns 0
T2F268 008:010.261 JLINK_WriteReg(R4, 0x00000000)
T2F268 008:010.265 - 0.003ms returns 0
T2F268 008:010.269 JLINK_WriteReg(R5, 0x00000000)
T2F268 008:010.272 - 0.003ms returns 0
T2F268 008:010.277 JLINK_WriteReg(R6, 0x00000000)
T2F268 008:010.283 - 0.005ms returns 0
T2F268 008:010.286 JLINK_WriteReg(R7, 0x00000000)
T2F268 008:010.290 - 0.003ms returns 0
T2F268 008:010.294 JLINK_WriteReg(R8, 0x00000000)
T2F268 008:010.297 - 0.003ms returns 0
T2F268 008:010.301 JLINK_WriteReg(R9, 0x20000504)
T2F268 008:010.305 - 0.003ms returns 0
T2F268 008:010.309 JLINK_WriteReg(R10, 0x00000000)
T2F268 008:010.313 - 0.003ms returns 0
T2F268 008:010.317 JLINK_WriteReg(R11, 0x00000000)
T2F268 008:010.320 - 0.003ms returns 0
T2F268 008:010.324 JLINK_WriteReg(R12, 0x00000000)
T2F268 008:010.327 - 0.003ms returns 0
T2F268 008:010.331 JLINK_WriteReg(R13 (SP), 0x20008000)
T2F268 008:010.335 - 0.004ms returns 0
T2F268 008:010.339 JLINK_WriteReg(R14, 0x20000001)
T2F268 008:010.342 - 0.003ms returns 0
T2F268 008:010.350 JLINK_WriteReg(R15 (PC), 0x20000020)
T2F268 008:010.354 - 0.007ms returns 0
T2F268 008:010.358 JLINK_WriteReg(XPSR, 0x01000000)
T2F268 008:010.362 - 0.003ms returns 0
T2F268 008:010.366 JLINK_WriteReg(MSP, 0x20008000)
T2F268 008:010.369 - 0.003ms returns 0
T2F268 008:010.373 JLINK_WriteReg(PSP, 0x20008000)
T2F268 008:010.377 - 0.003ms returns 0
T2F268 008:010.381 JLINK_WriteReg(CFBP, 0x00000000)
T2F268 008:010.384 - 0.003ms returns 0
T2F268 008:010.389 JLINK_SetBPEx(Addr = 0x20000000, Type = 0xFFFFFFF2)
T2F268 008:010.400   CPU_ReadMem(4 bytes @ 0x20000000)
T2F268 008:011.077   CPU_WriteMem(4 bytes @ 0x20000000)
T2F268 008:011.723   CPU_ReadMem(4 bytes @ 0x20000000)
T2F268 008:012.345   CPU_WriteMem(4 bytes @ 0x20000000)
T2F268 008:012.969   CPU_ReadMem(2 bytes @ 0x20000000)
T2F268 008:013.581 - 3.192ms returns 0x00000001
T2F268 008:013.588 JLINK_Go()
T2F268 008:013.633   CPU_WriteMem(2 bytes @ 0x20000000)
T2F268 008:014.467   CPU_ReadMem(4 bytes @ 0xE0001000)
T2F268 008:015.112   CPU_WriteMem(4 bytes @ 0xE0002008)
T2F268 008:015.137   CPU_WriteMem(4 bytes @ 0xE000200C)
T2F268 008:015.149   CPU_WriteMem(4 bytes @ 0xE0002010)
T2F268 008:015.159   CPU_WriteMem(4 bytes @ 0xE0002014)
T2F268 008:015.164   CPU_WriteMem(4 bytes @ 0xE0002018)
T2F268 008:015.169   CPU_WriteMem(4 bytes @ 0xE000201C)
T2F268 008:017.377   CPU_WriteMem(4 bytes @ 0xE0001004)
T2F268 008:027.615   Memory map 'after startup completion point' is active
T2F268 008:027.637 - 14.048ms
T2F268 008:027.646 JLINK_IsHalted()
T2F268 008:033.834   CPU_ReadMem(2 bytes @ 0x20000000)
T2F268 008:034.475 - 6.827ms returns TRUE
T2F268 008:034.502 JLINK_ReadReg(R15 (PC))
T2F268 008:034.514 - 0.012ms returns 0x20000000
T2F268 008:034.523 JLINK_ClrBPEx(BPHandle = 0x00000001)
T2F268 008:034.532 - 0.008ms returns 0x00
T2F268 008:034.541 JLINK_ReadReg(R0)
T2F268 008:034.548 - 0.007ms returns 0x00000000
T2F268 008:036.226 JLINK_HasError()
T2F268 008:036.240 JLINK_WriteReg(R0, 0x08000000)
T2F268 008:036.246 - 0.006ms returns 0
T2F268 008:036.250 JLINK_WriteReg(R1, 0x00B71B00)
T2F268 008:036.253 - 0.003ms returns 0
T2F268 008:036.257 JLINK_WriteReg(R2, 0x00000001)
T2F268 008:036.261 - 0.003ms returns 0
T2F268 008:036.265 JLINK_WriteReg(R3, 0x00000000)
T2F268 008:036.269 - 0.003ms returns 0
T2F268 008:036.272 JLINK_WriteReg(R4, 0x00000000)
T2F268 008:036.275 - 0.003ms returns 0
T2F268 008:036.279 JLINK_WriteReg(R5, 0x00000000)
T2F268 008:036.283 - 0.003ms returns 0
T2F268 008:036.286 JLINK_WriteReg(R6, 0x00000000)
T2F268 008:036.289 - 0.003ms returns 0
T2F268 008:036.293 JLINK_WriteReg(R7, 0x00000000)
T2F268 008:036.297 - 0.003ms returns 0
T2F268 008:036.301 JLINK_WriteReg(R8, 0x00000000)
T2F268 008:036.305 - 0.003ms returns 0
T2F268 008:036.309 JLINK_WriteReg(R9, 0x20000504)
T2F268 008:036.312 - 0.003ms returns 0
T2F268 008:036.316 JLINK_WriteReg(R10, 0x00000000)
T2F268 008:036.319 - 0.003ms returns 0
T2F268 008:036.323 JLINK_WriteReg(R11, 0x00000000)
T2F268 008:036.326 - 0.003ms returns 0
T2F268 008:036.330 JLINK_WriteReg(R12, 0x00000000)
T2F268 008:036.334 - 0.003ms returns 0
T2F268 008:036.338 JLINK_WriteReg(R13 (SP), 0x20008000)
T2F268 008:036.341 - 0.003ms returns 0
T2F268 008:036.345 JLINK_WriteReg(R14, 0x20000001)
T2F268 008:036.393 - 0.047ms returns 0
T2F268 008:036.398 JLINK_WriteReg(R15 (PC), 0x20000172)
T2F268 008:036.401 - 0.004ms returns 0
T2F268 008:036.405 JLINK_WriteReg(XPSR, 0x01000000)
T2F268 008:036.409 - 0.003ms returns 0
T2F268 008:036.413 JLINK_WriteReg(MSP, 0x20008000)
T2F268 008:036.416 - 0.003ms returns 0
T2F268 008:036.420 JLINK_WriteReg(PSP, 0x20008000)
T2F268 008:036.424 - 0.003ms returns 0
T2F268 008:036.427 JLINK_WriteReg(CFBP, 0x00000000)
T2F268 008:036.431 - 0.003ms returns 0
T2F268 008:036.436 JLINK_SetBPEx(Addr = 0x20000000, Type = 0xFFFFFFF2)
T2F268 008:036.441 - 0.004ms returns 0x00000002
T2F268 008:036.445 JLINK_Go()
T2F268 008:036.455   CPU_ReadMem(4 bytes @ 0xE0001000)
T2F268 008:042.881 - 6.436ms
T2F268 008:042.905 JLINK_IsHalted()
T2F268 008:043.579 - 0.672ms returns FALSE
T2F268 008:043.590 JLINK_HasError()
T2F268 008:079.745 JLINK_IsHalted()
T2F268 008:086.001   CPU_ReadMem(2 bytes @ 0x20000000)
T2F268 008:086.566 - 6.821ms returns TRUE
T2F268 008:086.582 JLINK_ReadReg(R15 (PC))
T2F268 008:086.588 - 0.006ms returns 0x20000000
T2F268 008:086.593 JLINK_ClrBPEx(BPHandle = 0x00000002)
T2F268 008:086.597 - 0.004ms returns 0x00
T2F268 008:086.656 JLINK_ReadReg(R0)
T2F268 008:086.672 - 0.016ms returns 0x00000000
T2F268 008:139.414 JLINK_HasError()
T2F268 008:139.449 JLINK_WriteReg(R0, 0x00000001)
T2F268 008:139.465 - 0.015ms returns 0
T2F268 008:139.474 JLINK_WriteReg(R1, 0x00B71B00)
T2F268 008:139.483 - 0.009ms returns 0
T2F268 008:139.491 JLINK_WriteReg(R2, 0x00000001)
T2F268 008:139.500 - 0.008ms returns 0
T2F268 008:139.507 JLINK_WriteReg(R3, 0x00000000)
T2F268 008:139.516 - 0.008ms returns 0
T2F268 008:139.523 JLINK_WriteReg(R4, 0x00000000)
T2F268 008:139.532 - 0.008ms returns 0
T2F268 008:139.539 JLINK_WriteReg(R5, 0x00000000)
T2F268 008:139.547 - 0.008ms returns 0
T2F268 008:139.555 JLINK_WriteReg(R6, 0x00000000)
T2F268 008:139.563 - 0.008ms returns 0
T2F268 008:139.570 JLINK_WriteReg(R7, 0x00000000)
T2F268 008:139.577 - 0.007ms returns 0
T2F268 008:139.585 JLINK_WriteReg(R8, 0x00000000)
T2F268 008:139.593 - 0.008ms returns 0
T2F268 008:139.601 JLINK_WriteReg(R9, 0x20000504)
T2F268 008:139.609 - 0.008ms returns 0
T2F268 008:139.617 JLINK_WriteReg(R10, 0x00000000)
T2F268 008:139.625 - 0.008ms returns 0
T2F268 008:139.632 JLINK_WriteReg(R11, 0x00000000)
T2F268 008:139.641 - 0.008ms returns 0
T2F268 008:139.648 JLINK_WriteReg(R12, 0x00000000)
T2F268 008:139.656 - 0.008ms returns 0
T2F268 008:139.664 JLINK_WriteReg(R13 (SP), 0x20008000)
T2F268 008:139.673 - 0.009ms returns 0
T2F268 008:139.681 JLINK_WriteReg(R14, 0x20000001)
T2F268 008:139.689 - 0.008ms returns 0
T2F268 008:139.697 JLINK_WriteReg(R15 (PC), 0x20000036)
T2F268 008:139.705 - 0.008ms returns 0
T2F268 008:139.713 JLINK_WriteReg(XPSR, 0x01000000)
T2F268 008:139.721 - 0.008ms returns 0
T2F268 008:139.729 JLINK_WriteReg(MSP, 0x20008000)
T2F268 008:139.737 - 0.008ms returns 0
T2F268 008:139.745 JLINK_WriteReg(PSP, 0x20008000)
T2F268 008:139.753 - 0.008ms returns 0
T2F268 008:139.761 JLINK_WriteReg(CFBP, 0x00000000)
T2F268 008:139.769 - 0.008ms returns 0
T2F268 008:139.777 JLINK_SetBPEx(Addr = 0x20000000, Type = 0xFFFFFFF2)
T2F268 008:139.789 - 0.011ms returns 0x00000003
T2F268 008:139.796 JLINK_Go()
T2F268 008:139.819   CPU_ReadMem(4 bytes @ 0xE0001000)
T2F268 008:145.955 - 6.157ms
T2F268 008:145.981 JLINK_IsHalted()
T2F268 008:152.123   CPU_ReadMem(2 bytes @ 0x20000000)
T2F268 008:152.709 - 6.726ms returns TRUE
T2F268 008:152.717 JLINK_ReadReg(R15 (PC))
T2F268 008:152.722 - 0.006ms returns 0x20000000
T2F268 008:152.727 JLINK_ClrBPEx(BPHandle = 0x00000003)
T2F268 008:152.731 - 0.004ms returns 0x00
T2F268 008:152.735 JLINK_ReadReg(R0)
T2F268 008:152.739 - 0.003ms returns 0x00000000
T2F268 008:159.764 JLINK_WriteMem(0x20000000, 0x508 Bytes, ...)
T2F268 008:159.774   Data:  00 BE 0A E0 0D 78 2D 06 68 40 08 24 40 00 00 D3 ...
T2F268 008:159.791   CPU_WriteMem(1288 bytes @ 0x20000000)
T2F268 008:175.939 - 16.161ms returns 0x508
T2F268 008:176.109 JLINK_HasError()
T2F268 008:176.127 JLINK_WriteReg(R0, 0x08000000)
T2F268 008:176.136 - 0.008ms returns 0
T2F268 008:176.140 JLINK_WriteReg(R1, 0x00B71B00)
T2F268 008:176.143 - 0.003ms returns 0
T2F268 008:176.147 JLINK_WriteReg(R2, 0x00000002)
T2F268 008:176.150 - 0.003ms returns 0
T2F268 008:176.154 JLINK_WriteReg(R3, 0x00000000)
T2F268 008:176.158 - 0.003ms returns 0
T2F268 008:176.162 JLINK_WriteReg(R4, 0x00000000)
T2F268 008:176.165 - 0.003ms returns 0
T2F268 008:176.169 JLINK_WriteReg(R5, 0x00000000)
T2F268 008:176.173 - 0.003ms returns 0
T2F268 008:176.177 JLINK_WriteReg(R6, 0x00000000)
T2F268 008:176.180 - 0.003ms returns 0
T2F268 008:176.184 JLINK_WriteReg(R7, 0x00000000)
T2F268 008:176.188 - 0.003ms returns 0
T2F268 008:176.192 JLINK_WriteReg(R8, 0x00000000)
T2F268 008:176.195 - 0.003ms returns 0
T2F268 008:176.199 JLINK_WriteReg(R9, 0x20000504)
T2F268 008:176.202 - 0.003ms returns 0
T2F268 008:176.206 JLINK_WriteReg(R10, 0x00000000)
T2F268 008:176.209 - 0.003ms returns 0
T2F268 008:176.213 JLINK_WriteReg(R11, 0x00000000)
T2F268 008:176.217 - 0.003ms returns 0
T2F268 008:176.221 JLINK_WriteReg(R12, 0x00000000)
T2F268 008:176.225 - 0.003ms returns 0
T2F268 008:176.229 JLINK_WriteReg(R13 (SP), 0x20008000)
T2F268 008:176.233 - 0.004ms returns 0
T2F268 008:176.237 JLINK_WriteReg(R14, 0x20000001)
T2F268 008:176.240 - 0.003ms returns 0
T2F268 008:176.245 JLINK_WriteReg(R15 (PC), 0x20000020)
T2F268 008:176.248 - 0.003ms returns 0
T2F268 008:176.252 JLINK_WriteReg(XPSR, 0x01000000)
T2F268 008:176.255 - 0.003ms returns 0
T2F268 008:176.259 JLINK_WriteReg(MSP, 0x20008000)
T2F268 008:176.262 - 0.003ms returns 0
T2F268 008:176.266 JLINK_WriteReg(PSP, 0x20008000)
T2F268 008:176.270 - 0.003ms returns 0
T2F268 008:176.273 JLINK_WriteReg(CFBP, 0x00000000)
T2F268 008:176.277 - 0.003ms returns 0
T2F268 008:176.282 JLINK_SetBPEx(Addr = 0x20000000, Type = 0xFFFFFFF2)
T2F268 008:176.293   CPU_ReadMem(4 bytes @ 0x20000000)
T2F268 008:176.966   CPU_WriteMem(4 bytes @ 0x20000000)
T2F268 008:177.590   CPU_ReadMem(4 bytes @ 0x20000000)
T2F268 008:178.186   CPU_WriteMem(4 bytes @ 0x20000000)
T2F268 008:178.850   CPU_ReadMem(2 bytes @ 0x20000000)
T2F268 008:179.473 - 3.189ms returns 0x00000004
T2F268 008:179.493 JLINK_Go()
T2F268 008:179.508   CPU_WriteMem(2 bytes @ 0x20000000)
T2F268 008:180.111   CPU_ReadMem(4 bytes @ 0xE0001000)
T2F268 008:186.110 - 6.617ms
T2F268 008:186.128 JLINK_IsHalted()
T2F268 008:192.241   CPU_ReadMem(2 bytes @ 0x20000000)
T2F268 008:192.789 - 6.660ms returns TRUE
T2F268 008:192.797 JLINK_ReadReg(R15 (PC))
T2F268 008:192.803 - 0.005ms returns 0x20000000
T2F268 008:192.808 JLINK_ClrBPEx(BPHandle = 0x00000004)
T2F268 008:192.812 - 0.004ms returns 0x00
T2F268 008:192.816 JLINK_ReadReg(R0)
T2F268 008:192.819 - 0.003ms returns 0x00000000
T2F268 008:193.144 JLINK_WriteMem(0x20000508, 0x2F8 Bytes, ...)
T2F268 008:193.150   Data:  00 00 01 20 E5 27 00 08 DD 27 00 08 75 0C 00 08 ...
T2F268 008:193.165   CPU_WriteMem(760 bytes @ 0x20000508)
T2F268 008:202.931 - 9.786ms returns 0x2F8
T2F268 008:202.959 JLINK_WriteMem(0x20000800, 0x400 Bytes, ...)
T2F268 008:202.967   Data:  0A 00 C3 F3 0A 51 02 90 40 1A 01 90 40 28 6B DA ...
T2F268 008:202.986   CPU_WriteMem(1024 bytes @ 0x20000800)
T2F268 008:215.873 - 12.912ms returns 0x400
T2F268 008:215.901 JLINK_WriteMem(0x20000C00, 0x400 Bytes, ...)
T2F268 008:215.909   Data:  AE 4E 2F 46 DF F8 B8 82 18 46 00 F0 EF F9 CD E9 ...
T2F268 008:215.937   CPU_WriteMem(1024 bytes @ 0x20000C00)
T2F268 008:228.862 - 12.961ms returns 0x400
T2F268 008:228.889 JLINK_WriteMem(0x20001000, 0x400 Bytes, ...)
T2F268 008:228.893   Data:  03 B0 00 BD 01 F0 00 43 30 B4 21 F0 00 41 50 EA ...
T2F268 008:228.909   CPU_WriteMem(1024 bytes @ 0x20001000)
T2F268 008:241.926 - 13.035ms returns 0x400
T2F268 008:241.976 JLINK_WriteMem(0x20001400, 0x108 Bytes, ...)
T2F268 008:241.985   Data:  40 F0 01 00 E0 50 70 BD 45 F2 70 10 C0 F6 00 00 ...
T2F268 008:242.007   CPU_WriteMem(264 bytes @ 0x20001400)
T2F268 008:245.804 - 3.826ms returns 0x108
T2F268 008:245.850 JLINK_HasError()
T2F268 008:245.959 JLINK_WriteReg(R0, 0x08000000)
T2F268 008:245.966 - 0.007ms returns 0
T2F268 008:245.971 JLINK_WriteReg(R1, 0x00001000)
T2F268 008:245.974 - 0.003ms returns 0
T2F268 008:245.978 JLINK_WriteReg(R2, 0x20000508)
T2F268 008:245.982 - 0.003ms returns 0
T2F268 008:245.986 JLINK_WriteReg(R3, 0x00000000)
T2F268 008:245.989 - 0.003ms returns 0
T2F268 008:245.993 JLINK_WriteReg(R4, 0x00000000)
T2F268 008:245.997 - 0.003ms returns 0
T2F268 008:246.001 JLINK_WriteReg(R5, 0x00000000)
T2F268 008:246.004 - 0.003ms returns 0
T2F268 008:246.008 JLINK_WriteReg(R6, 0x00000000)
T2F268 008:246.011 - 0.003ms returns 0
T2F268 008:246.015 JLINK_WriteReg(R7, 0x00000000)
T2F268 008:246.019 - 0.003ms returns 0
T2F268 008:246.023 JLINK_WriteReg(R8, 0x00000000)
T2F268 008:246.026 - 0.003ms returns 0
T2F268 008:246.030 JLINK_WriteReg(R9, 0x20000504)
T2F268 008:246.033 - 0.003ms returns 0
T2F268 008:246.037 JLINK_WriteReg(R10, 0x00000000)
T2F268 008:246.041 - 0.003ms returns 0
T2F268 008:246.045 JLINK_WriteReg(R11, 0x00000000)
T2F268 008:246.049 - 0.003ms returns 0
T2F268 008:246.053 JLINK_WriteReg(R12, 0x00000000)
T2F268 008:246.056 - 0.003ms returns 0
T2F268 008:246.060 JLINK_WriteReg(R13 (SP), 0x20008000)
T2F268 008:246.065 - 0.004ms returns 0
T2F268 008:246.069 JLINK_WriteReg(R14, 0x20000001)
T2F268 008:246.072 - 0.003ms returns 0
T2F268 008:246.077 JLINK_WriteReg(R15 (PC), 0x20000268)
T2F268 008:246.080 - 0.003ms returns 0
T2F268 008:246.084 JLINK_WriteReg(XPSR, 0x01000000)
T2F268 008:246.087 - 0.003ms returns 0
T2F268 008:246.091 JLINK_WriteReg(MSP, 0x20008000)
T2F268 008:246.094 - 0.003ms returns 0
T2F268 008:246.098 JLINK_WriteReg(PSP, 0x20008000)
T2F268 008:246.102 - 0.003ms returns 0
T2F268 008:246.105 JLINK_WriteReg(CFBP, 0x00000000)
T2F268 008:246.109 - 0.003ms returns 0
T2F268 008:246.114 JLINK_SetBPEx(Addr = 0x20000000, Type = 0xFFFFFFF2)
T2F268 008:246.120 - 0.005ms returns 0x00000005
T2F268 008:246.124 JLINK_Go()
T2F268 008:246.134   CPU_ReadMem(4 bytes @ 0xE0001000)
T2F268 008:252.260 - 6.134ms
T2F268 008:252.293 JLINK_IsHalted()
T2F268 008:252.921 - 0.627ms returns FALSE
T2F268 008:252.938 JLINK_HasError()
T2F268 008:260.794 JLINK_IsHalted()
T2F268 008:261.507 - 0.711ms returns FALSE
T2F268 008:261.526 JLINK_HasError()
T2F268 008:262.788 JLINK_IsHalted()
T2F268 008:263.449 - 0.660ms returns FALSE
T2F268 008:263.468 JLINK_HasError()
T2F268 008:264.825 JLINK_IsHalted()
T2F268 008:265.501 - 0.676ms returns FALSE
T2F268 008:265.524 JLINK_HasError()
T2F268 008:266.798 JLINK_IsHalted()
T2F268 008:267.478 - 0.679ms returns FALSE
T2F268 008:267.489 JLINK_HasError()
T2F268 008:268.796 JLINK_IsHalted()
T2F268 008:269.435 - 0.639ms returns FALSE
T2F268 008:269.446 JLINK_HasError()
T2F268 008:270.799 JLINK_IsHalted()
T2F268 008:271.437 - 0.637ms returns FALSE
T2F268 008:271.457 JLINK_HasError()
T2F268 008:272.797 JLINK_IsHalted()
T2F268 008:278.996   CPU_ReadMem(2 bytes @ 0x20000000)
T2F268 008:279.684 - 6.886ms returns TRUE
T2F268 008:279.703 JLINK_ReadReg(R15 (PC))
T2F268 008:279.713 - 0.011ms returns 0x20000000
T2F268 008:279.718 JLINK_ClrBPEx(BPHandle = 0x00000005)
T2F268 008:279.722 - 0.004ms returns 0x00
T2F268 008:279.728 JLINK_ReadReg(R0)
T2F268 008:279.731 - 0.003ms returns 0x00000000
T2F268 008:281.177 JLINK_WriteMem(0x20000508, 0x2F8 Bytes, ...)
T2F268 008:281.189   Data:  1B FC 4F F0 08 0A 48 46 41 46 CD F8 04 A0 00 F0 ...
T2F268 008:281.202   CPU_WriteMem(760 bytes @ 0x20000508)
T2F268 008:290.969 - 9.791ms returns 0x2F8
T2F268 008:290.992 JLINK_WriteMem(0x20000800, 0x400 Bytes, ...)
T2F268 008:291.001   Data:  B7 43 33 40 3B 43 2B 64 83 69 CF 78 4F F0 01 0C ...
T2F268 008:291.019   CPU_WriteMem(1024 bytes @ 0x20000800)
T2F268 008:303.886 - 12.894ms returns 0x400
T2F268 008:303.909 JLINK_WriteMem(0x20000C00, 0x400 Bytes, ...)
T2F268 008:303.917   Data:  97 80 CB 07 2A D1 8A 07 2F D4 4A 07 34 D4 0A 07 ...
T2F268 008:303.931   CPU_WriteMem(1024 bytes @ 0x20000C00)
T2F268 008:316.908 - 12.996ms returns 0x400
T2F268 008:316.947 JLINK_WriteMem(0x20001000, 0x400 Bytes, ...)
T2F268 008:316.954   Data:  00 3F 14 60 12 D9 FD 08 05 EB 85 05 A0 EB 45 00 ...
T2F268 008:316.983   CPU_WriteMem(1024 bytes @ 0x20001000)
T2F268 008:329.932 - 12.982ms returns 0x400
T2F268 008:329.976 JLINK_WriteMem(0x20001400, 0x108 Bytes, ...)
T2F268 008:329.987   Data:  C3 F8 00 51 03 F5 80 72 0B 79 4F F4 00 35 00 2B ...
T2F268 008:330.001   CPU_WriteMem(264 bytes @ 0x20001400)
T2F268 008:333.712 - 3.736ms returns 0x108
T2F268 008:333.728 JLINK_HasError()
T2F268 008:333.873 JLINK_WriteReg(R0, 0x08001000)
T2F268 008:333.878 - 0.005ms returns 0
T2F268 008:333.882 JLINK_WriteReg(R1, 0x00001000)
T2F268 008:333.885 - 0.003ms returns 0
T2F268 008:333.889 JLINK_WriteReg(R2, 0x20000508)
T2F268 008:333.893 - 0.003ms returns 0
T2F268 008:333.896 JLINK_WriteReg(R3, 0x00000000)
T2F268 008:333.899 - 0.003ms returns 0
T2F268 008:333.903 JLINK_WriteReg(R4, 0x00000000)
T2F268 008:333.906 - 0.003ms returns 0
T2F268 008:333.910 JLINK_WriteReg(R5, 0x00000000)
T2F268 008:333.913 - 0.003ms returns 0
T2F268 008:333.917 JLINK_WriteReg(R6, 0x00000000)
T2F268 008:333.920 - 0.003ms returns 0
T2F268 008:333.924 JLINK_WriteReg(R7, 0x00000000)
T2F268 008:333.927 - 0.003ms returns 0
T2F268 008:333.931 JLINK_WriteReg(R8, 0x00000000)
T2F268 008:333.934 - 0.003ms returns 0
T2F268 008:333.937 JLINK_WriteReg(R9, 0x20000504)
T2F268 008:333.941 - 0.003ms returns 0
T2F268 008:333.945 JLINK_WriteReg(R10, 0x00000000)
T2F268 008:333.948 - 0.003ms returns 0
T2F268 008:333.952 JLINK_WriteReg(R11, 0x00000000)
T2F268 008:333.955 - 0.003ms returns 0
T2F268 008:333.958 JLINK_WriteReg(R12, 0x00000000)
T2F268 008:333.961 - 0.003ms returns 0
T2F268 008:333.965 JLINK_WriteReg(R13 (SP), 0x20008000)
T2F268 008:333.969 - 0.004ms returns 0
T2F268 008:333.973 JLINK_WriteReg(R14, 0x20000001)
T2F268 008:333.977 - 0.003ms returns 0
T2F268 008:333.981 JLINK_WriteReg(R15 (PC), 0x20000268)
T2F268 008:333.984 - 0.003ms returns 0
T2F268 008:333.988 JLINK_WriteReg(XPSR, 0x01000000)
T2F268 008:333.991 - 0.003ms returns 0
T2F268 008:333.994 JLINK_WriteReg(MSP, 0x20008000)
T2F268 008:333.997 - 0.003ms returns 0
T2F268 008:334.001 JLINK_WriteReg(PSP, 0x20008000)
T2F268 008:334.005 - 0.003ms returns 0
T2F268 008:334.008 JLINK_WriteReg(CFBP, 0x00000000)
T2F268 008:334.011 - 0.003ms returns 0
T2F268 008:334.016 JLINK_SetBPEx(Addr = 0x20000000, Type = 0xFFFFFFF2)
T2F268 008:334.020 - 0.004ms returns 0x00000006
T2F268 008:334.024 JLINK_Go()
T2F268 008:334.032   CPU_ReadMem(4 bytes @ 0xE0001000)
T2F268 008:340.084 - 6.059ms
T2F268 008:340.103 JLINK_IsHalted()
T2F268 008:340.705 - 0.602ms returns FALSE
T2F268 008:340.713 JLINK_HasError()
T2F268 008:343.443 JLINK_IsHalted()
T2F268 008:344.142 - 0.697ms returns FALSE
T2F268 008:344.175 JLINK_HasError()
T2F268 008:345.442 JLINK_IsHalted()
T2F268 008:346.133 - 0.690ms returns FALSE
T2F268 008:346.154 JLINK_HasError()
T2F268 008:347.435 JLINK_IsHalted()
T2F268 008:348.053 - 0.617ms returns FALSE
T2F268 008:348.059 JLINK_HasError()
T2F268 008:349.445 JLINK_IsHalted()
T2F268 008:350.128 - 0.683ms returns FALSE
T2F268 008:350.142 JLINK_HasError()
T2F268 008:351.944 JLINK_IsHalted()
T2F268 008:352.601 - 0.657ms returns FALSE
T2F268 008:352.612 JLINK_HasError()
T2F268 008:353.943 JLINK_IsHalted()
T2F268 008:354.582 - 0.638ms returns FALSE
T2F268 008:354.617 JLINK_HasError()
T2F268 008:359.223 JLINK_IsHalted()
T2F268 008:359.919 - 0.695ms returns FALSE
T2F268 008:359.949 JLINK_HasError()
T2F268 008:361.220 JLINK_IsHalted()
T2F268 008:367.333   CPU_ReadMem(2 bytes @ 0x20000000)
T2F268 008:367.986 - 6.764ms returns TRUE
T2F268 008:368.031 JLINK_ReadReg(R15 (PC))
T2F268 008:368.039 - 0.009ms returns 0x20000000
T2F268 008:368.044 JLINK_ClrBPEx(BPHandle = 0x00000006)
T2F268 008:368.049 - 0.004ms returns 0x00
T2F268 008:368.053 JLINK_ReadReg(R0)
T2F268 008:368.057 - 0.004ms returns 0x00000000
T2F268 008:368.538 JLINK_WriteMem(0x20000508, 0x2F8 Bytes, ...)
T2F268 008:368.546   Data:  4A 88 4B F2 00 00 C4 F2 03 00 C2 61 8A 88 02 62 ...
T2F268 008:368.612   CPU_WriteMem(760 bytes @ 0x20000508)
T2F268 008:378.352 - 9.812ms returns 0x2F8
T2F268 008:378.384 JLINK_WriteMem(0x20000800, 0x400 Bytes, ...)
T2F268 008:378.395   Data:  25 50 20 68 40 F4 00 30 20 60 00 BF 20 68 80 03 ...
T2F268 008:378.419   CPU_WriteMem(1024 bytes @ 0x20000800)
T2F268 008:391.354 - 12.969ms returns 0x400
T2F268 008:391.382 JLINK_WriteMem(0x20000C00, 0x400 Bytes, ...)
T2F268 008:391.388   Data:  00 30 9B 1A 0A 2B BD D8 DC F8 00 30 DB 03 14 D5 ...
T2F268 008:391.404   CPU_WriteMem(1024 bytes @ 0x20000C00)
T2F268 008:404.306 - 12.923ms returns 0x400
T2F268 008:404.338 JLINK_WriteMem(0x20001000, 0x400 Bytes, ...)
T2F268 008:404.346   Data:  B1 8A 88 42 34 BF 30 6B 70 6A 00 B1 80 47 54 F8 ...
T2F268 008:404.365   CPU_WriteMem(1024 bytes @ 0x20001000)
T2F268 008:417.299 - 12.961ms returns 0x400
T2F268 008:417.344 JLINK_WriteMem(0x20001400, 0x108 Bytes, ...)
T2F268 008:417.353   Data:  AC 70 CB F8 00 00 5B F8 50 0C 00 F0 03 00 02 28 ...
T2F268 008:417.376   CPU_WriteMem(264 bytes @ 0x20001400)
T2F268 008:421.096 - 3.750ms returns 0x108
T2F268 008:421.134 JLINK_HasError()
T2F268 008:421.258 JLINK_WriteReg(R0, 0x08002000)
T2F268 008:421.264 - 0.007ms returns 0
T2F268 008:421.268 JLINK_WriteReg(R1, 0x00001000)
T2F268 008:421.272 - 0.003ms returns 0
T2F268 008:421.276 JLINK_WriteReg(R2, 0x20000508)
T2F268 008:421.279 - 0.003ms returns 0
T2F268 008:421.283 JLINK_WriteReg(R3, 0x00000000)
T2F268 008:421.286 - 0.003ms returns 0
T2F268 008:421.290 JLINK_WriteReg(R4, 0x00000000)
T2F268 008:421.294 - 0.003ms returns 0
T2F268 008:421.298 JLINK_WriteReg(R5, 0x00000000)
T2F268 008:421.302 - 0.003ms returns 0
T2F268 008:421.306 JLINK_WriteReg(R6, 0x00000000)
T2F268 008:421.309 - 0.003ms returns 0
T2F268 008:421.313 JLINK_WriteReg(R7, 0x00000000)
T2F268 008:421.316 - 0.003ms returns 0
T2F268 008:421.320 JLINK_WriteReg(R8, 0x00000000)
T2F268 008:421.323 - 0.003ms returns 0
T2F268 008:421.327 JLINK_WriteReg(R9, 0x20000504)
T2F268 008:421.330 - 0.003ms returns 0
T2F268 008:421.334 JLINK_WriteReg(R10, 0x00000000)
T2F268 008:421.338 - 0.003ms returns 0
T2F268 008:421.342 JLINK_WriteReg(R11, 0x00000000)
T2F268 008:421.346 - 0.003ms returns 0
T2F268 008:421.349 JLINK_WriteReg(R12, 0x00000000)
T2F268 008:421.352 - 0.003ms returns 0
T2F268 008:421.357 JLINK_WriteReg(R13 (SP), 0x20008000)
T2F268 008:421.361 - 0.004ms returns 0
T2F268 008:421.365 JLINK_WriteReg(R14, 0x20000001)
T2F268 008:421.368 - 0.003ms returns 0
T2F268 008:421.372 JLINK_WriteReg(R15 (PC), 0x20000268)
T2F268 008:421.376 - 0.003ms returns 0
T2F268 008:421.380 JLINK_WriteReg(XPSR, 0x01000000)
T2F268 008:421.383 - 0.003ms returns 0
T2F268 008:421.387 JLINK_WriteReg(MSP, 0x20008000)
T2F268 008:421.390 - 0.003ms returns 0
T2F268 008:421.394 JLINK_WriteReg(PSP, 0x20008000)
T2F268 008:421.398 - 0.003ms returns 0
T2F268 008:421.402 JLINK_WriteReg(CFBP, 0x00000000)
T2F268 008:421.405 - 0.003ms returns 0
T2F268 008:421.410 JLINK_SetBPEx(Addr = 0x20000000, Type = 0xFFFFFFF2)
T2F268 008:421.414 - 0.005ms returns 0x00000007
T2F268 008:421.418 JLINK_Go()
T2F268 008:421.429   CPU_ReadMem(4 bytes @ 0xE0001000)
T2F268 008:427.521 - 6.100ms
T2F268 008:427.546 JLINK_IsHalted()
T2F268 008:428.292 - 0.745ms returns FALSE
T2F268 008:428.304 JLINK_HasError()
T2F268 008:430.533 JLINK_IsHalted()
T2F268 008:431.248 - 0.715ms returns FALSE
T2F268 008:431.258 JLINK_HasError()
T2F268 008:432.530 JLINK_IsHalted()
T2F268 008:433.231 - 0.700ms returns FALSE
T2F268 008:433.250 JLINK_HasError()
T2F268 008:434.525 JLINK_IsHalted()
T2F268 008:435.183 - 0.658ms returns FALSE
T2F268 008:435.195 JLINK_HasError()
T2F268 008:436.522 JLINK_IsHalted()
T2F268 008:437.125 - 0.602ms returns FALSE
T2F268 008:437.136 JLINK_HasError()
T2F268 008:439.035 JLINK_IsHalted()
T2F268 008:439.641 - 0.605ms returns FALSE
T2F268 008:439.651 JLINK_HasError()
T2F268 008:441.040 JLINK_IsHalted()
T2F268 008:441.686 - 0.645ms returns FALSE
T2F268 008:441.697 JLINK_HasError()
T2F268 008:443.671 JLINK_IsHalted()
T2F268 008:444.357 - 0.685ms returns FALSE
T2F268 008:444.373 JLINK_HasError()
T2F268 008:445.831 JLINK_IsHalted()
T2F268 008:446.499 - 0.667ms returns FALSE
T2F268 008:446.513 JLINK_HasError()
T2F268 008:450.599 JLINK_IsHalted()
T2F268 008:456.812   CPU_ReadMem(2 bytes @ 0x20000000)
T2F268 008:457.486 - 6.886ms returns TRUE
T2F268 008:457.502 JLINK_ReadReg(R15 (PC))
T2F268 008:457.510 - 0.008ms returns 0x20000000
T2F268 008:457.517 JLINK_ClrBPEx(BPHandle = 0x00000007)
T2F268 008:457.522 - 0.005ms returns 0x00
T2F268 008:457.529 JLINK_ReadReg(R0)
T2F268 008:457.534 - 0.005ms returns 0x00000000
T2F268 008:458.166 JLINK_WriteMem(0x20000508, 0x2F8 Bytes, ...)
T2F268 008:458.182   Data:  01 30 08 E0 02 30 06 E0 03 30 04 E0 04 30 02 E0 ...
T2F268 008:458.200   CPU_WriteMem(760 bytes @ 0x20000508)
T2F268 008:467.993 - 9.826ms returns 0x2F8
T2F268 008:468.026 JLINK_WriteMem(0x20000800, 0x400 Bytes, ...)
T2F268 008:468.030   Data:  08 68 4E F6 0C 57 40 F0 10 00 08 60 08 68 CE F2 ...
T2F268 008:468.047   CPU_WriteMem(1024 bytes @ 0x20000800)
T2F268 008:481.036 - 13.007ms returns 0x400
T2F268 008:481.068 JLINK_WriteMem(0x20000C00, 0x400 Bytes, ...)
T2F268 008:481.073   Data:  64 00 20 46 39 46 8D F8 5C 80 FD F7 75 FB 0D 20 ...
T2F268 008:481.085   CPU_WriteMem(1024 bytes @ 0x20000C00)
T2F268 008:494.012 - 12.941ms returns 0x400
T2F268 008:494.059 JLINK_WriteMem(0x20001000, 0x400 Bytes, ...)
T2F268 008:494.065   Data:  CD F8 1C 90 FE F7 52 F8 04 20 0A 90 00 20 29 46 ...
T2F268 008:494.079   CPU_WriteMem(1024 bytes @ 0x20001000)
T2F268 008:507.084 - 13.023ms returns 0x400
T2F268 008:507.113 JLINK_WriteMem(0x20001400, 0x108 Bytes, ...)
T2F268 008:507.119   Data:  08 20 AD F8 1C 00 48 F2 00 00 C4 F2 00 00 21 46 ...
T2F268 008:507.133   CPU_WriteMem(264 bytes @ 0x20001400)
T2F268 008:510.892 - 3.777ms returns 0x108
T2F268 008:510.929 JLINK_HasError()
T2F268 008:511.048 JLINK_WriteReg(R0, 0x08003000)
T2F268 008:511.055 - 0.007ms returns 0
T2F268 008:511.059 JLINK_WriteReg(R1, 0x00001000)
T2F268 008:511.063 - 0.003ms returns 0
T2F268 008:511.067 JLINK_WriteReg(R2, 0x20000508)
T2F268 008:511.070 - 0.003ms returns 0
T2F268 008:511.074 JLINK_WriteReg(R3, 0x00000000)
T2F268 008:511.078 - 0.003ms returns 0
T2F268 008:511.082 JLINK_WriteReg(R4, 0x00000000)
T2F268 008:511.085 - 0.003ms returns 0
T2F268 008:511.089 JLINK_WriteReg(R5, 0x00000000)
T2F268 008:511.092 - 0.003ms returns 0
T2F268 008:511.096 JLINK_WriteReg(R6, 0x00000000)
T2F268 008:511.099 - 0.003ms returns 0
T2F268 008:511.103 JLINK_WriteReg(R7, 0x00000000)
T2F268 008:511.107 - 0.003ms returns 0
T2F268 008:511.110 JLINK_WriteReg(R8, 0x00000000)
T2F268 008:511.114 - 0.003ms returns 0
T2F268 008:511.118 JLINK_WriteReg(R9, 0x20000504)
T2F268 008:511.122 - 0.003ms returns 0
T2F268 008:511.126 JLINK_WriteReg(R10, 0x00000000)
T2F268 008:511.129 - 0.003ms returns 0
T2F268 008:511.133 JLINK_WriteReg(R11, 0x00000000)
T2F268 008:511.136 - 0.003ms returns 0
T2F268 008:511.140 JLINK_WriteReg(R12, 0x00000000)
T2F268 008:511.143 - 0.003ms returns 0
T2F268 008:511.148 JLINK_WriteReg(R13 (SP), 0x20008000)
T2F268 008:511.152 - 0.004ms returns 0
T2F268 008:511.156 JLINK_WriteReg(R14, 0x20000001)
T2F268 008:511.159 - 0.003ms returns 0
T2F268 008:511.163 JLINK_WriteReg(R15 (PC), 0x20000268)
T2F268 008:511.167 - 0.003ms returns 0
T2F268 008:511.171 JLINK_WriteReg(XPSR, 0x01000000)
T2F268 008:511.174 - 0.003ms returns 0
T2F268 008:511.178 JLINK_WriteReg(MSP, 0x20008000)
T2F268 008:511.182 - 0.003ms returns 0
T2F268 008:511.186 JLINK_WriteReg(PSP, 0x20008000)
T2F268 008:511.189 - 0.003ms returns 0
T2F268 008:511.193 JLINK_WriteReg(CFBP, 0x00000000)
T2F268 008:511.196 - 0.003ms returns 0
T2F268 008:511.201 JLINK_SetBPEx(Addr = 0x20000000, Type = 0xFFFFFFF2)
T2F268 008:511.206 - 0.005ms returns 0x00000008
T2F268 008:511.210 JLINK_Go()
T2F268 008:511.220   CPU_ReadMem(4 bytes @ 0xE0001000)
T2F268 008:517.421 - 6.209ms
T2F268 008:517.443 JLINK_IsHalted()
T2F268 008:518.062 - 0.618ms returns FALSE
T2F268 008:518.087 JLINK_HasError()
T2F268 008:520.370 JLINK_IsHalted()
T2F268 008:521.043 - 0.671ms returns FALSE
T2F268 008:521.063 JLINK_HasError()
T2F268 008:522.374 JLINK_IsHalted()
T2F268 008:523.129 - 0.754ms returns FALSE
T2F268 008:523.144 JLINK_HasError()
T2F268 008:526.604 JLINK_IsHalted()
T2F268 008:527.324 - 0.720ms returns FALSE
T2F268 008:527.362 JLINK_HasError()
T2F268 008:528.595 JLINK_IsHalted()
T2F268 008:529.251 - 0.655ms returns FALSE
T2F268 008:529.269 JLINK_HasError()
T2F268 008:530.586 JLINK_IsHalted()
T2F268 008:531.250 - 0.663ms returns FALSE
T2F268 008:531.266 JLINK_HasError()
T2F268 008:532.585 JLINK_IsHalted()
T2F268 008:533.227 - 0.642ms returns FALSE
T2F268 008:533.241 JLINK_HasError()
T2F268 008:534.587 JLINK_IsHalted()
T2F268 008:535.226 - 0.638ms returns FALSE
T2F268 008:535.237 JLINK_HasError()
T2F268 008:536.584 JLINK_IsHalted()
T2F268 008:537.227 - 0.643ms returns FALSE
T2F268 008:537.241 JLINK_HasError()
T2F268 008:539.404 JLINK_IsHalted()
T2F268 008:545.630   CPU_ReadMem(2 bytes @ 0x20000000)
T2F268 008:546.206 - 6.801ms returns TRUE
T2F268 008:546.213 JLINK_ReadReg(R15 (PC))
T2F268 008:546.224 - 0.011ms returns 0x20000000
T2F268 008:546.235 JLINK_ClrBPEx(BPHandle = 0x00000008)
T2F268 008:546.244 - 0.009ms returns 0x00
T2F268 008:546.254 JLINK_ReadReg(R0)
T2F268 008:546.262 - 0.008ms returns 0x00000000
T2F268 008:546.759 JLINK_WriteMem(0x20000508, 0x2F8 Bytes, ...)
T2F268 008:546.767   Data:  C0 F6 00 01 00 F0 A4 FB 70 6B 40 F0 01 00 70 63 ...
T2F268 008:546.778   CPU_WriteMem(760 bytes @ 0x20000508)
T2F268 008:556.478 - 9.717ms returns 0x2F8
T2F268 008:556.502 JLINK_WriteMem(0x20000800, 0x400 Bytes, ...)
T2F268 008:556.512   Data:  1F 68 27 F0 40 07 1F 60 1F 68 47 F0 80 07 1F 60 ...
T2F268 008:556.529   CPU_WriteMem(1024 bytes @ 0x20000800)
T2F268 008:569.463 - 12.960ms returns 0x400
T2F268 008:569.504 JLINK_WriteMem(0x20000C00, 0x400 Bytes, ...)
T2F268 008:569.513   Data:  20 00 78 60 02 20 30 70 38 69 40 F0 01 00 38 61 ...
T2F268 008:569.537   CPU_WriteMem(1024 bytes @ 0x20000C00)
T2F268 008:582.527 - 13.022ms returns 0x400
T2F268 008:582.551 JLINK_WriteMem(0x20001000, 0x400 Bytes, ...)
T2F268 008:582.556   Data:  0B 92 08 AA 0A 92 0B E0 3A A2 F9 E7 5B 46 08 9A ...
T2F268 008:582.572   CPU_WriteMem(1024 bytes @ 0x20001000)
T2F268 008:595.538 - 12.984ms returns 0x400
T2F268 008:595.570 JLINK_WriteMem(0x20001400, 0x108 Bytes, ...)
T2F268 008:595.576   Data:  02 00 00 00 00 12 7A 00 00 C2 EB 0B 01 00 0C 00 ...
T2F268 008:595.596   CPU_WriteMem(264 bytes @ 0x20001400)
T2F268 008:599.452 - 3.881ms returns 0x108
T2F268 008:599.472 JLINK_HasError()
T2F268 008:599.551 JLINK_WriteReg(R0, 0x08004000)
T2F268 008:599.565 - 0.014ms returns 0
T2F268 008:599.570 JLINK_WriteReg(R1, 0x00001000)
T2F268 008:599.574 - 0.003ms returns 0
T2F268 008:599.578 JLINK_WriteReg(R2, 0x20000508)
T2F268 008:599.581 - 0.003ms returns 0
T2F268 008:599.585 JLINK_WriteReg(R3, 0x00000000)
T2F268 008:599.589 - 0.003ms returns 0
T2F268 008:599.592 JLINK_WriteReg(R4, 0x00000000)
T2F268 008:599.595 - 0.003ms returns 0
T2F268 008:599.599 JLINK_WriteReg(R5, 0x00000000)
T2F268 008:599.603 - 0.003ms returns 0
T2F268 008:599.606 JLINK_WriteReg(R6, 0x00000000)
T2F268 008:599.610 - 0.003ms returns 0
T2F268 008:599.614 JLINK_WriteReg(R7, 0x00000000)
T2F268 008:599.618 - 0.003ms returns 0
T2F268 008:599.622 JLINK_WriteReg(R8, 0x00000000)
T2F268 008:599.625 - 0.003ms returns 0
T2F268 008:599.629 JLINK_WriteReg(R9, 0x20000504)
T2F268 008:599.633 - 0.003ms returns 0
T2F268 008:599.637 JLINK_WriteReg(R10, 0x00000000)
T2F268 008:599.640 - 0.003ms returns 0
T2F268 008:599.644 JLINK_WriteReg(R11, 0x00000000)
T2F268 008:599.647 - 0.003ms returns 0
T2F268 008:599.651 JLINK_WriteReg(R12, 0x00000000)
T2F268 008:599.654 - 0.003ms returns 0
T2F268 008:599.658 JLINK_WriteReg(R13 (SP), 0x20008000)
T2F268 008:599.662 - 0.004ms returns 0
T2F268 008:599.666 JLINK_WriteReg(R14, 0x20000001)
T2F268 008:599.670 - 0.004ms returns 0
T2F268 008:599.675 JLINK_WriteReg(R15 (PC), 0x20000268)
T2F268 008:599.682 - 0.007ms returns 0
T2F268 008:599.686 JLINK_WriteReg(XPSR, 0x01000000)
T2F268 008:599.690 - 0.003ms returns 0
T2F268 008:599.694 JLINK_WriteReg(MSP, 0x20008000)
T2F268 008:599.697 - 0.003ms returns 0
T2F268 008:599.701 JLINK_WriteReg(PSP, 0x20008000)
T2F268 008:599.704 - 0.003ms returns 0
T2F268 008:599.708 JLINK_WriteReg(CFBP, 0x00000000)
T2F268 008:599.711 - 0.003ms returns 0
T2F268 008:599.716 JLINK_SetBPEx(Addr = 0x20000000, Type = 0xFFFFFFF2)
T2F268 008:599.722 - 0.006ms returns 0x00000009
T2F268 008:599.726 JLINK_Go()
T2F268 008:599.737   CPU_ReadMem(4 bytes @ 0xE0001000)
T2F268 008:605.773 - 6.045ms
T2F268 008:605.798 JLINK_IsHalted()
T2F268 008:606.434 - 0.635ms returns FALSE
T2F268 008:606.447 JLINK_HasError()
T2F268 008:609.625 JLINK_IsHalted()
T2F268 008:610.336 - 0.710ms returns FALSE
T2F268 008:610.350 JLINK_HasError()
T2F268 008:611.735 JLINK_IsHalted()
T2F268 008:612.422 - 0.686ms returns FALSE
T2F268 008:612.438 JLINK_HasError()
T2F268 008:613.835 JLINK_IsHalted()
T2F268 008:614.504 - 0.668ms returns FALSE
T2F268 008:614.514 JLINK_HasError()
T2F268 008:618.102 JLINK_IsHalted()
T2F268 008:618.827 - 0.724ms returns FALSE
T2F268 008:618.848 JLINK_HasError()
T2F268 008:620.153 JLINK_IsHalted()
T2F268 008:620.797 - 0.642ms returns FALSE
T2F268 008:620.814 JLINK_HasError()
T2F268 008:622.152 JLINK_IsHalted()
T2F268 008:622.814 - 0.661ms returns FALSE
T2F268 008:622.833 JLINK_HasError()
T2F268 008:624.156 JLINK_IsHalted()
T2F268 008:624.936 - 0.779ms returns FALSE
T2F268 008:624.951 JLINK_HasError()
T2F268 008:626.163 JLINK_IsHalted()
T2F268 008:632.318   CPU_ReadMem(2 bytes @ 0x20000000)
T2F268 008:632.901 - 6.736ms returns TRUE
T2F268 008:632.921 JLINK_ReadReg(R15 (PC))
T2F268 008:632.937 - 0.016ms returns 0x20000000
T2F268 008:632.950 JLINK_ClrBPEx(BPHandle = 0x00000009)
T2F268 008:632.962 - 0.011ms returns 0x00
T2F268 008:632.975 JLINK_ReadReg(R0)
T2F268 008:632.986 - 0.011ms returns 0x00000000
T2F268 008:633.638 JLINK_WriteMem(0x20000508, 0x2F8 Bytes, ...)
T2F268 008:633.650   Data:  25 75 5D 20 74 6F 20 67 65 6E 65 72 61 74 65 20 ...
T2F268 008:633.663   CPU_WriteMem(760 bytes @ 0x20000508)
T2F268 008:643.425 - 9.784ms returns 0x2F8
T2F268 008:643.454 JLINK_WriteMem(0x20000800, 0x400 Bytes, ...)
T2F268 008:643.461   Data:  B4 47 00 08 60 69 00 08 00 00 01 20 54 00 00 00 ...
T2F268 008:643.480   CPU_WriteMem(1024 bytes @ 0x20000800)
T2F268 008:656.579 - 13.123ms returns 0x400
T2F268 008:656.613 JLINK_WriteMem(0x20000C00, 0x400 Bytes, ...)
T2F268 008:656.619   Data:  58 F8 01 20 42 F0 02 02 48 F8 01 20 41 F2 FC 41 ...
T2F268 008:656.640   CPU_WriteMem(1024 bytes @ 0x20000C00)
T2F268 008:669.610 - 12.995ms returns 0x400
T2F268 008:669.647 JLINK_WriteMem(0x20001000, 0x400 Bytes, ...)
T2F268 008:669.656   Data:  10 BB 4F F4 85 50 21 5A 19 B9 41 F2 9C 01 00 22 ...
T2F268 008:669.680   CPU_WriteMem(1024 bytes @ 0x20001000)
T2F268 008:682.655 - 13.007ms returns 0x400
T2F268 008:682.684 JLINK_WriteMem(0x20001400, 0x108 Bytes, ...)
T2F268 008:682.691   Data:  21 50 00 21 41 F2 0C 50 C4 F2 8B 31 21 50 00 20 ...
T2F268 008:682.711   CPU_WriteMem(264 bytes @ 0x20001400)
T2F268 008:686.458 - 3.771ms returns 0x108
T2F268 008:686.498 JLINK_HasError()
T2F268 008:686.600 JLINK_WriteReg(R0, 0x08005000)
T2F268 008:686.607 - 0.007ms returns 0
T2F268 008:686.612 JLINK_WriteReg(R1, 0x00001000)
T2F268 008:686.615 - 0.003ms returns 0
T2F268 008:686.619 JLINK_WriteReg(R2, 0x20000508)
T2F268 008:686.622 - 0.003ms returns 0
T2F268 008:686.626 JLINK_WriteReg(R3, 0x00000000)
T2F268 008:686.630 - 0.003ms returns 0
T2F268 008:686.634 JLINK_WriteReg(R4, 0x00000000)
T2F268 008:686.638 - 0.003ms returns 0
T2F268 008:686.642 JLINK_WriteReg(R5, 0x00000000)
T2F268 008:686.645 - 0.003ms returns 0
T2F268 008:686.649 JLINK_WriteReg(R6, 0x00000000)
T2F268 008:686.652 - 0.003ms returns 0
T2F268 008:686.656 JLINK_WriteReg(R7, 0x00000000)
T2F268 008:686.659 - 0.003ms returns 0
T2F268 008:686.663 JLINK_WriteReg(R8, 0x00000000)
T2F268 008:686.670 - 0.006ms returns 0
T2F268 008:686.674 JLINK_WriteReg(R9, 0x20000504)
T2F268 008:686.678 - 0.003ms returns 0
T2F268 008:686.682 JLINK_WriteReg(R10, 0x00000000)
T2F268 008:686.685 - 0.003ms returns 0
T2F268 008:686.689 JLINK_WriteReg(R11, 0x00000000)
T2F268 008:686.692 - 0.003ms returns 0
T2F268 008:686.696 JLINK_WriteReg(R12, 0x00000000)
T2F268 008:686.699 - 0.003ms returns 0
T2F268 008:686.704 JLINK_WriteReg(R13 (SP), 0x20008000)
T2F268 008:686.708 - 0.004ms returns 0
T2F268 008:686.712 JLINK_WriteReg(R14, 0x20000001)
T2F268 008:686.715 - 0.003ms returns 0
T2F268 008:686.720 JLINK_WriteReg(R15 (PC), 0x20000268)
T2F268 008:686.723 - 0.003ms returns 0
T2F268 008:686.727 JLINK_WriteReg(XPSR, 0x01000000)
T2F268 008:686.730 - 0.003ms returns 0
T2F268 008:686.734 JLINK_WriteReg(MSP, 0x20008000)
T2F268 008:686.738 - 0.003ms returns 0
T2F268 008:686.742 JLINK_WriteReg(PSP, 0x20008000)
T2F268 008:686.746 - 0.003ms returns 0
T2F268 008:686.749 JLINK_WriteReg(CFBP, 0x00000000)
T2F268 008:686.753 - 0.003ms returns 0
T2F268 008:686.758 JLINK_SetBPEx(Addr = 0x20000000, Type = 0xFFFFFFF2)
T2F268 008:686.762 - 0.005ms returns 0x0000000A
T2F268 008:686.766 JLINK_Go()
T2F268 008:686.778   CPU_ReadMem(4 bytes @ 0xE0001000)
T2F268 008:692.883 - 6.115ms
T2F268 008:692.907 JLINK_IsHalted()
T2F268 008:693.542 - 0.634ms returns FALSE
T2F268 008:693.552 JLINK_HasError()
T2F268 008:696.371 JLINK_IsHalted()
T2F268 008:697.042 - 0.671ms returns FALSE
T2F268 008:697.056 JLINK_HasError()
T2F268 008:698.531 JLINK_IsHalted()
T2F268 008:699.177 - 0.644ms returns FALSE
T2F268 008:699.202 JLINK_HasError()
T2F268 008:700.677 JLINK_IsHalted()
T2F268 008:701.338 - 0.660ms returns FALSE
T2F268 008:701.359 JLINK_HasError()
T2F268 008:703.287 JLINK_IsHalted()
